!File created by NanoVNA
# Hz S RI R 50
2400000000  0.035326060  0.317350880
2400120000  0.036616016  0.320847840
2400240000  0.039011832  0.318057312
2400360000  0.039226956  0.317910432
2400480000  0.038658008  0.316483744
2400600000  0.038792340  0.314275936
2400720000  0.041243748  0.316270336
2400840000  0.040499592  0.315197152
2400960000  0.040572708  0.314289120
2401080000  0.040600432  0.313317280
2401200000  0.040343924  0.311893120
2401320000  0.043306396  0.313424608
2401440000  0.042010708  0.311430752
2401560000  0.043862756  0.313013056
2401680000  0.043986648  0.311940704
2401800000  0.041278760  0.309855968
2401920000  0.044605448  0.311758816
2402040000  0.045272068  0.310058400
2402160000  0.046224388  0.310885216
2402280000  0.045741348  0.308647968
2402400000  0.046720952  0.307403200
2402520000  0.046736460  0.307886816
2402640000  0.047318832  0.307457280
2402760000  0.047099244  0.307851232
2402880000  0.047813672  0.306262624
2403000000  0.047385448  0.305115456
2403120000  0.048109996  0.306866400
2403240000  0.050426716  0.305228960
2403360000  0.050119652  0.306084800
2403480000  0.049589000  0.304649920
2403600000  0.048925628  0.301976160
2403720000  0.051555284  0.304621088
2403840000  0.051712704  0.302969056
2403960000  0.052810160  0.302589280
2404080000  0.051738284  0.301968512
2404200000  0.050112236  0.299956544
2404320000  0.053280240  0.301302720
2404440000  0.053993192  0.300844128
2404560000  0.053108304  0.300594464
2404680000  0.054638448  0.299521312
2404800000  0.052638512  0.297791456
2404920000  0.056003728  0.300640512
2405040000  0.056351228  0.298136160
2405160000  0.055996136  0.297998208
2405280000  0.056779956  0.296610432
2405400000  0.055653096  0.294823328
2405520000  0.057381712  0.296473088
2405640000  0.058739004  0.295255008
2405760000  0.059037544  0.296146400
2405880000  0.058835644  0.295151488
2406000000  0.058116876  0.292515680
2406120000  0.059988480  0.294887968
2406240000  0.061980716  0.294429472
2406360000  0.061095436  0.293767104
2406480000  0.061842028  0.292566112
2406600000  0.060253044  0.290842560
2406720000  0.062839016  0.293302400
2406840000  0.063513780  0.291335200
2406960000  0.061286352  0.291548256
2407080000  0.063400500  0.289829920
2407200000  0.061899332  0.287554112
2407320000  0.063576236  0.291087840
2407440000  0.065141128  0.289484160
2407560000  0.064270400  0.289583328
2407680000  0.064416468  0.288729632
2407800000  0.064629032  0.286184192
2407920000  0.066485508  0.287892032
2408040000  0.066693404  0.282728704
2408160000  0.066959048  0.286320224
2408280000  0.066934376  0.284820064
2408400000  0.066121728  0.284710304
2408520000  0.068130128  0.284722144
2408640000  0.070196056  0.284657216
2408760000  0.069837440  0.284986176
2408880000  0.068330072  0.281557376
2409000000  0.069258928  0.280931072
2409120000  0.070732824  0.281687136
2409240000  0.070802744  0.280231680
2409360000  0.071291472  0.282291712
2409480000  0.071765336  0.279707680
2409600000  0.071455408  0.278043328
2409720000  0.072995920  0.281352992
2409840000  0.072908736  0.278212960
2409960000  0.073066568  0.280180448
2410080000  0.071922680  0.277459648
2410200000  0.072454648  0.275812992
2410320000  0.074755336  0.278795840
2410440000  0.075035248  0.276591136
2410560000  0.075409672  0.276600256
2410680000  0.075042288  0.275399424
2410800000  0.073428432  0.273823264
2410920000  0.076219800  0.277034016
2411040000  0.076288456  0.272985440
2411160000  0.076540912  0.273308096
2411280000  0.075959448  0.273144448
2411400000  0.076735168  0.270681024
2411520000  0.078200256  0.273593056
2411640000  0.078311672  0.270168928
2411760000  0.078308984  0.270906304
2411880000  0.081483080  0.273424192
2412000000  0.080407440  0.271226464
2412120000  0.080754456  0.269876672
2412240000  0.080682768  0.268650336
2412360000  0.080202600  0.270434880
2412480000  0.080976912  0.267965136
2412600000  0.079848584  0.265607328
2412720000  0.082536784  0.268060416
2412840000  0.082280576  0.266636576
2412960000  0.082182464  0.267112288
2413080000  0.083161888  0.264543504
2413200000  0.081579464  0.263169856
2413320000  0.082846272  0.264527296
2413440000  0.084549816  0.263094336
2413560000  0.084678304  0.264627040
2413680000  0.084107712  0.261773104
2413800000  0.083035968  0.261121936
2413920000  0.085894080  0.262110560
2414040000  0.086093976  0.262054800
2414160000  0.085565528  0.262401728
2414280000  0.085590408  0.259934192
2414400000  0.084713528  0.257087536
2414520000  0.086219896  0.258988656
2414640000  0.087529616  0.257854528
2414760000  0.087694408  0.258711008
2414880000  0.088274632  0.258479216
2415000000  0.086469624  0.255329136
2415120000  0.088102192  0.256497856
2415240000  0.090060648  0.255463152
2415360000  0.089847088  0.256088384
2415480000  0.089605120  0.253883120
2415600000  0.087419560  0.252360464
2415720000  0.090368792  0.254444176
2415840000  0.091690704  0.253716416
2415960000  0.090882024  0.252000368
2416080000  0.091554400  0.251504416
2416200000  0.090450984  0.249977792
2416320000  0.092724312  0.251845600
2416440000  0.092716920  0.249534656
2416560000  0.092591888  0.251227104
2416680000  0.092337040  0.249372192
2416800000  0.091656072  0.247708160
2416920000  0.094474592  0.250492032
2417040000  0.094921096  0.247385216
2417160000  0.094845528  0.248694064
2417280000  0.092406456  0.246144096
2417400000  0.092998472  0.244432000
2417520000  0.093895528  0.245881056
2417640000  0.094837256  0.243427600
2417760000  0.094212224  0.244230912
2417880000  0.095208744  0.243315584
2418000000  0.093864144  0.239978656
2418120000  0.096241064  0.243707216
2418240000  0.097359184  0.241621840
2418360000  0.096156280  0.240691664
2418480000  0.096697272  0.239591968
2418600000  0.095092056  0.237589440
2418720000  0.097621128  0.242310400
2418840000  0.097052576  0.237885248
2418960000  0.099057128  0.239036032
2419080000  0.097449472  0.237788640
2419200000  0.096477480  0.234072304
2419320000  0.099970712  0.237747696
2419440000  0.100076664  0.238258064
2419560000  0.099343216  0.234819776
2419680000  0.099970144  0.236174864
2419800000  0.098655608  0.232961456
2419920000  0.101920752  0.235059520
2420040000  0.100841296  0.234817024
2420160000  0.102535792  0.235388176
2420280000  0.101477416  0.232053280
2420400000  0.100549392  0.230835904
2420520000  0.103533920  0.230532656
2420640000  0.103308584  0.231777760
2420760000  0.102186104  0.231751200
2420880000  0.103056784  0.229298912
2421000000  0.102130680  0.226372000
2421120000  0.104573960  0.232995248
2421240000  0.105130904  0.227917760
2421360000  0.105076752  0.228028400
2421480000  0.104618152  0.227131824
2421600000  0.103446576  0.224283728
2421720000  0.106479152  0.228503488
2421840000  0.106460000  0.222930016
2421960000  0.106449072  0.224443600
2422080000  0.107745960  0.224440672
2422200000  0.105050232  0.222207152
2422320000  0.108394576  0.224307008
2422440000  0.108977024  0.220856400
2422560000  0.108215728  0.223421856
2422680000  0.107262624  0.221269136
2422800000  0.106629112  0.222663776
2422920000  0.109744064  0.218385744
2423040000  0.110271816  0.218150656
2423160000  0.108433056  0.219097504
2423280000  0.110562848  0.218143680
2423400000  0.108026424  0.218371232
2423520000  0.109255104  0.217706704
2423640000  0.113043784  0.213304512
2423760000  0.109867808  0.217317184
2423880000  0.112615104  0.214188896
2424000000  0.109518984  0.214384080
